Frequency (Hz)	Z (Ω)	-Phase (°)	Z' (Ω)	-Z'' (Ω)	Column 6
1000000	26.1041467894831	36.0047493685879	21.1174264375817	15.3453830274844	-0.75
630960	34.6885944128047	50.0375979765333	22.2799564552254	26.5876310093496	
398110	49.0231363076666	60.1450352346548	24.4040208843918	42.5171925003784	
251190	71.395489291806	67.0054901376701	27.8901426273688	65.7225671701997	
158490	105.67127544895	71.7220753906346	33.1413260269143	100.339777576919	
100000	157.117667117112	75.1962836274979	40.1448944840433	151.9024317356	
63096	235.157941878292	78.1196549387808	48.4116132808015	230.120779870016	
39811	356.114739849447	80.7362900809155	57.3268995084268	351.470247006471	
25119	545.704503222264	83.4581697961481	62.1713311256111	542.151390686335	
15849	846.898733520866	85.089666030454	72.491672773899	843.790508489926	
10000	1322.70076814781	86.2774430025141	85.8765808404445	1319.91004804189	
6309.6	2073.93363569158	87.110627649788	104.542202274739	2071.29709438227	
3981.1	3257.01816238903	87.6748041899017	132.141083865561	3254.3364982876	
2511.9	5105.82419473536	88.0959223432358	169.647685825191	5103.00503333469	
1584.9	8058.34035719226	88.3585916349694	230.823600016818	8055.03381606984	
1000	12681.7084879032	88.5510886604613	320.664332133626	12677.6537481607	
630.96	19970.7530380361	88.6861811423688	457.898520266206	19965.5028950278	
398.11	31463.690601584	88.7950947725455	661.618907581582	31456.7335668111	
251.19	49594.0259311154	88.876263505362	972.620399832772	49584.4876711858	
158.49	78346.0009873339	88.9478787238691	1438.58522900976	78332.7922599865	
100	123650.035951968	88.9783752722807	2204.6517510421	123630.38017243	
63.096	195093.26321669	88.9485833683024	3579.89351219431	195060.415551127	
39.811	307579.511386737	88.8179383259876	6345.18221030081	307514.055756191	
25.119	485625.273588803	88.7146233400376	10893.6301978965	485503.074314994	
15.849	766045.541567099	88.565242727603	19180.724273134	765805.374472645	
10	1207510.77368412	88.1182083562184	39651.7022545375	1206859.5655964	
Frequency (Hz)	Z (Ω)	-Phase (°)	Z' (Ω)	-Z'' (Ω)	Column 6
1000000	26.0537712263797	35.9608760601098	21.0883958259751	15.2996260282246	-0.5
630960	34.5755249686039	49.8802794326597	22.2800142787297	26.4398920306826	
398110	48.8596990652573	59.9760373830568	24.4475441258641	42.3035196994462	
251190	71.0396792235978	66.8622437852894	27.9145564931775	65.3254434350114	
158490	105.054733268152	71.6546072175579	33.0654040140446	99.7154754259863	
100000	156.13118230038	75.2391871732754	39.7797964776582	150.978521249582	
63096	233.906997311961	78.2451218099612	47.6527280089318	229.001530354722	
39811	354.713328293658	80.8938689141754	56.1382534106345	350.242832579295	
25119	544.521998977481	83.6070227540898	60.6309591154317	541.135929473523	
15849	845.714300258559	85.1936714709451	70.8606329263971	842.740439496702	
10000	1322.09086035312	86.3552891426574	84.0444066035765	1319.41683358516	
6309.6	2073.17397921428	87.1619828226667	102.648009547787	2070.63124052233	
3981.1	3255.07869748061	87.7117221200557	129.966721514871	3252.4830480866	
2511.9	5105.12614138454	88.1201996571775	167.462532037436	5102.37878051124	
1584.9	8056.69626586292	88.3728088670392	228.778151236948	8053.44741572738	
1000	12683.3650203245	88.5690904008214	316.722494979192	12679.4098876866	
630.96	19973.6150223032	88.7025919305123	452.244737937905	19968.4944789582	
398.11	31465.1466539167	88.8069454847273	655.142889928019	31458.3254758778	
251.19	49596.4897663248	88.880587373167	968.926601487325	49587.0242944875	
158.49	78303.1068152245	88.9766389359076	1398.49899725496	78290.6171739062	
100	123637.985369872	89.0187205981659	2117.38941978278	123619.853131954	
63.096	195096.251436326	89.0107298615733	3368.36862894075	195067.17155197	
39.811	307545.0921282	88.9972138125578	5382.35500865264	307497.990150674	
25.119	485641.439641426	88.8605383169455	9657.4885734777	485545.405509568	
15.849	764149.518672689	88.6817299163399	17580.1181634944	763947.266722684	
10	1208528.91202685	88.5259173402526	31089.1134728727	1208128.96589242	
Frequency (Hz)	Z (Ω)	-Phase (°)	Z' (Ω)	-Z'' (Ω)	Column 6
1000000	26.0488230892702	35.8334850007966	21.1183491981249	15.2498036538887	-0.25
630960	34.5489857689328	49.786412043199	22.3061659653227	26.3830888561101	
398110	48.8233550230539	59.8996076987559	24.4857259799615	42.2394273036627	
251190	70.9563699793643	66.8069279604625	27.9448017402009	65.2218866359238	
158490	104.849567057225	71.6317951114088	33.0404502711846	99.5075894490707	
100000	155.795658009663	75.2600832387469	39.6393631549793	150.668536673492	
63096	233.633418982999	78.2841887163783	47.4410209979476	228.766090127794	
39811	354.396066197927	80.9428767005608	55.7887105597805	349.977415715132	
25119	544.252803223584	83.6352124470956	60.3348687616324	540.898158092858	
15849	845.582834686315	85.2153561523062	70.530711010366	842.63619025088	
10000	1321.6598388146	86.3564728296804	83.9897575859154	1318.98841926535	
6309.6	2072.92859193058	87.1597774218908	102.715552014602	2070.38220206262	
3981.1	3255.64965096058	87.714461719393	129.833973187002	3253.05975801341	
2511.9	5105.26350425739	88.119578705812	167.522337179104	5102.51425421316	
1584.9	8030.66238895592	88.3783091153398	227.268279381711	8027.44589110248	
1000	12683.0287707159	88.5672822057557	317.114236516727	12679.0637414521	
630.96	19971.8801364836	88.703441976887	451.909227407953	19966.7667446748	
398.11	31468.1963885207	88.8074341398808	654.938066334345	31461.3801362205	
251.19	49607.6256906011	88.901057162943	951.424396282945	49598.5011696618	
158.49	78092.5377100684	88.9856499998837	1382.45833299294	78080.3000439676	
100	123598.530374918	89.028029935275	2096.63452776028	123580.746212735	
63.096	195031.918955939	89.0223332488778	3327.76639647558	195003.526589769	
39.811	307879.317856785	88.9615390484283	5579.87250896454	307828.75009775	
25.119	484961.500713568	88.8967148986613	9337.82100885201	484871.59359274	
15.849	764126.694248975	88.8089670894386	15883.098279702	763961.603781829	
10	1208850.79929875	88.588506501172	29777.2798469679	1208483.99599256	
Frequency (Hz)	Z (Ω)	-Phase (°)	Z' (Ω)	-Z'' (Ω)	Column 6
1000000	26.0556432933708	35.8662078945674	21.1151632594293	15.2658582450849	0
630960	34.5399228294716	49.8025952566015	22.2928637323769	26.3824656860485	
398110	48.7738128566693	59.897495610244	24.4624352292225	42.1956642705562	
251190	70.8810261112393	66.8032638842198	27.9192954730856	65.1508465245751	
158490	104.818201928478	71.6314133802152	33.0312291825165	99.4776022741368	
100000	155.80054006229	75.2549650361096	39.6540647110016	150.669716385201	
63096	233.607257838282	78.2936405512842	47.3979738171223	228.748296152678	
39811	354.48519192301	80.9503773067991	55.7569130117257	350.072732363	
25119	544.233429108421	83.6377732456411	60.3085466827403	540.881599387635	
15849	845.550853358776	85.215864362319	70.520569572507	842.604945916485	
10000	1321.08989620884	86.3634987756411	83.7918654660004	1318.42991362712	
6309.6	2071.92323103555	87.1646581811718	102.489454436457	2069.38681426023	
3981.1	3255.71366713997	87.7077905200107	130.215300735266	3253.10858377897	
2511.9	5103.22403186325	88.1177739464042	167.616074418223	5100.47060289374	
1584.9	8027.52515780463	88.3780262593555	227.219109687136	8024.30879486696	
1000	12676.4122246694	88.5655081050732	317.341191048273	12672.4394438566	
630.96	19963.9170604196	88.7008165612657	452.643599545728	19958.7849872456	
398.11	31448.8796469539	88.8097089555149	653.287687188743	31442.0935410853	
251.19	49589.4475499862	88.8820959224195	967.483624164231	49580.0089123611	
158.49	78293.3586937557	88.9836414789191	1388.75759775388	78281.0409223317	
100	123540.059048615	89.0231297513222	2106.20681776568	123522.103619458	
63.096	194883.489391798	89.0327526701946	3289.79870771642	194855.720116156	
39.811	307316.869646398	89.0220854825814	5244.97685150623	307272.108378044	
25.119	484888.880253895	88.8893655602036	9398.60788243379	484797.785023559	
15.849	763440.622746109	88.8193239242523	15730.8669999109	763278.536500535	
10	1203816.942658	88.5838289807429	29751.529727517	1203449.24193308	
Frequency (Hz)	Z (Ω)	-Phase (°)	Z' (Ω)	-Z'' (Ω)	Column 6
1000000	26.0662697477792	35.7268299096232	21.1608632107055	15.2206532954994	0.25
630960	34.5458302032531	49.6965135928362	22.3454930555348	26.3456509605862	
398110	48.7874377908371	59.8365296282883	24.5141660737503	42.1813910143252	
251190	70.8954818203712	66.7620108950653	27.9719003915596	65.1440107072573	
158490	104.796852700372	71.6065706286563	33.0676218118619	99.4430124423584	
100000	155.76523017447	75.2515938527532	39.6539407683386	150.633236414965	
63096	233.556213811188	78.2836051760807	47.4276730492703	228.690010361076	
39811	354.429458220189	80.9294236191538	55.8761482008821	349.997281298712	
25119	542.412521758546	83.6111896204434	60.3568727896721	539.043960793103	
15849	842.325057596096	85.1839510402326	70.7190552613808	839.351129073646	
10000	1320.18985295069	86.3361297750502	84.3641269055254	1317.49153391034	
6309.6	2070.34846540477	87.1315976383066	103.604700547535	2067.7545391628	
3981.1	3251.39582202514	87.6902388217894	131.037817500748	3248.754204594	
2511.9	5098.74106175757	88.1039410189369	168.699151312131	5095.949471021	
1584.9	8046.84681138849	88.3642956878946	229.693605904892	8043.56789325231	
1000	12662.391261171	88.5517361989855	320.032824335946	12658.3463154682	
630.96	19939.1542893125	88.696591644233	453.552059496824	19933.9951916904	
398.11	31425.1820328633	88.8014289846552	657.335769379897	31418.3063751834	
251.19	49553.5015397573	88.8984844567474	952.611000180896	49544.3442497028	
158.49	78196.1126308603	88.9700283905618	1405.6085628611	78183.4784027048	
100	123433.376332493	89.0122484844943	2127.82628083738	123415.034530471	
63.096	194693.542470623	89.0103658407224	3362.65256709845	194664.501251443	
39.811	307258.006441364	89.017263961817	5269.82464379692	307212.811371116	
25.119	484214.390041633	88.8330531104744	9861.34434925288	484113.963247308	
15.849	761423.984656898	88.7737116513136	16295.3376980273	761249.595323436	
10	1205323.63670386	88.5510674027805	30477.7521672512	1204938.24564575	
